time	V(mreal)	V(vc)	V(vinput)	V(vobser)	V(vtest)
0.000000000000000e+000	1.000000e+000	1.816683e-002	-5.183219e-001	1.290293e-001	2.000000e+006
9.999999717180685e-010	1.000000e+000	1.816683e-002	-5.183219e-001	1.290293e-001	2.000000e+006
1.999999943436137e-009	1.000000e+000	1.816683e-002	-5.183219e-001	1.290293e-001	2.000000e+006
1.599999954748910e-008	1.000000e+000	1.816683e-002	-5.183219e-001	1.290293e-001	2.000000e+006
6.399999818995639e-008	1.000000e+000	1.816683e-002	-5.183219e-001	1.290295e-001	2.000000e+006
1.279999963799128e-007	1.000000e+000	1.816683e-002	-5.183219e-001	1.290298e-001	2.000000e+006
2.559999927598256e-007	1.000000e+000	1.816683e-002	-5.183219e-001	1.290302e-001	2.000000e+006
5.119999855196511e-007	1.000000e+000	1.816683e-002	-5.183219e-001	1.290306e-001	2.000000e+006
1.023999971039302e-006	1.000000e+000	1.816683e-002	-5.183219e-001	1.290310e-001	2.000000e+006
2.047999942078604e-006	1.000000e+000	1.816683e-002	-5.183219e-001	1.290315e-001	2.000000e+006
4.095999884157209e-006	1.000000e+000	1.816683e-002	-5.183219e-001	1.290318e-001	2.000000e+006
8.191999768314418e-006	1.000000e+000	1.816683e-002	-5.183219e-001	1.290318e-001	2.000000e+006
1.638399953662884e-005	1.000000e+000	1.816683e-002	-5.183219e-001	1.290318e-001	2.000000e+006
3.276799907325767e-005	1.000000e+000	1.816683e-002	-5.183219e-001	1.290318e-001	2.000000e+006
6.553599814651534e-005	1.000000e+000	1.816683e-002	-5.183219e-001	1.290318e-001	2.000000e+006
5.242879851721227e-004	1.000000e+000	1.816683e-002	-5.183219e-001	1.290318e-001	2.000000e+006
1.048575970344245e-003	1.000000e+000	1.816683e-002	-5.183219e-001	1.290319e-001	2.000000e+006
1.170646282844245e-003	1.000000e+000	1.816683e-002	-5.183219e-001	1.290319e-001	2.000000e+006
1.414786907844245e-003	1.000000e+000	1.816683e-002	-5.183219e-001	1.290318e-001	2.000000e+006
4.500000000000000e-002	1.000000e+000	1.816683e-002	-5.183219e-001	1.290318e-001	2.000000e+006
4.529296875000000e-002	1.000000e+000	1.816820e-002	-5.183084e-001	1.290318e-001	1.887500e+006
4.568359375000000e-002	1.000000e+000	1.817398e-002	-5.182509e-001	1.290319e-001	1.737500e+006
4.646484375000000e-002	1.000000e+000	1.820059e-002	-5.179855e-001	1.290319e-001	1.437500e+006
4.744140625000000e-002	1.000000e+000	1.827232e-002	-5.172697e-001	1.290319e-001	1.062500e+006
4.841796875000000e-002	1.000000e+000	1.844261e-002	-5.155706e-001	1.290320e-001	6.875000e+005
4.939453125000000e-002	1.000000e+000	1.894348e-002	-5.105826e-001	1.290324e-001	3.125000e+005
5.000000000000000e-002	1.000000e+000	1.961775e-002	-5.038748e-001	1.290331e-001	8.000000e+004
5.029296875000000e-002	1.000000e+000	2.031058e-002	-4.969468e-001	1.290331e-001	8.000000e+004
5.311104910714286e-002	1.000000e+000	2.690242e-002	-4.310285e-001	1.290327e-001	8.000000e+004
5.592912946428572e-002	1.000000e+000	3.337676e-002	-3.662852e-001	1.290327e-001	8.000000e+004
5.874720982142857e-002	1.000000e+000	3.973358e-002	-3.027170e-001	1.290333e-001	8.000000e+004
6.156529017857143e-002	1.000000e+000	4.597290e-002	-2.403238e-001	1.290344e-001	8.000000e+004
6.438337053571429e-002	1.000000e+000	5.209472e-002	-1.791058e-001	1.290361e-001	8.000000e+004
6.720145089285715e-002	1.000000e+000	5.809903e-002	-1.190628e-001	1.290384e-001	8.000000e+004
7.001953125000000e-002	1.000000e+000	6.398582e-002	-6.019490e-002	1.290411e-001	8.000000e+004
7.099609375000000e-002	1.000000e+000	6.600168e-002	-4.003626e-002	1.290425e-001	8.000000e+004
7.197265625000000e-002	1.000000e+000	6.800440e-002	-2.000919e-002	1.290437e-001	8.000000e+004
7.294921875000000e-002	1.000000e+000	6.999404e-002	-1.128065e-004	1.290462e-001	8.000000e+004
7.392578125000000e-002	1.000000e+000	7.197069e-002	1.965373e-002	1.290487e-001	8.000000e+004
7.490234375000000e-002	1.000000e+000	7.393445e-002	3.929127e-002	1.290428e-001	8.000000e+004
7.587890625000000e-002	1.000000e+000	7.588539e-002	5.880065e-002	1.290299e-001	8.000000e+004
7.685546875000000e-002	1.000000e+000	7.782360e-002	7.818272e-002	1.290246e-001	8.000000e+004
7.978515625000000e-002	1.000000e+000	8.356508e-002	1.355975e-001	1.290279e-001	8.000000e+004
8.000000000000000e-002	1.000000e+000	8.398221e-002	1.397687e-001	1.290279e-001	8.000000e+004
8.009765625000000e-002	1.000000e+000	8.408628e-002	1.408254e-001	1.290292e-001	1.175000e+005
8.029296875000000e-002	1.000000e+000	8.422846e-002	1.422641e-001	1.290305e-001	1.925000e+005
8.068359375000000e-002	1.000000e+000	8.434191e-002	1.434111e-001	1.290314e-001	3.425000e+005
8.146484375000000e-002	1.000000e+000	8.432260e-002	1.432263e-001	1.290321e-001	6.425000e+005
8.244140625000000e-002	1.000000e+000	8.413216e-002	1.413256e-001	1.290323e-001	1.017500e+006
8.341796875000000e-002	1.000000e+000	8.385373e-002	1.385429e-001	1.290325e-001	1.392500e+006
8.439453125000000e-002	1.000000e+000	8.353373e-002	1.353438e-001	1.290325e-001	1.767500e+006
8.500000000000001e-002	1.000000e+000	8.332366e-002	1.332436e-001	1.290326e-001	2.000000e+006
8.509765625000000e-002	1.000000e+000	8.328866e-002	1.328935e-001	1.290326e-001	2.000000e+006
8.529296875000000e-002	1.000000e+000	8.321872e-002	1.321941e-001	1.290326e-001	2.000000e+006
9.500000000000000e-002	1.000000e+000	7.983400e-002	9.834705e-002	1.290328e-001	2.000000e+006
9.925502232142858e-002	1.000000e+000	7.840845e-002	8.409163e-002	1.290330e-001	2.000000e+006
1.035100446428572e-001	1.000000e+000	7.701404e-002	7.014762e-002	1.290332e-001	2.000000e+006
1.077650669642857e-001	1.000000e+000	7.565078e-002	5.651503e-002	1.290333e-001	2.000000e+006
1.120200892857143e-001	1.000000e+000	7.431866e-002	4.319385e-002	1.290334e-001	2.000000e+006
1.162751116071429e-001	1.000000e+000	7.301767e-002	3.018409e-002	1.290334e-001	2.000000e+006
1.205301339285714e-001	1.000000e+000	7.174783e-002	1.748575e-002	1.290333e-001	2.000000e+006
1.247851562500000e-001	1.000000e+000	7.050914e-002	5.098819e-003	1.290332e-001	2.000000e+006
1.257617187500000e-001	1.000000e+000	7.022852e-002	2.292696e-003	1.290332e-001	2.000000e+006
1.267382812500000e-001	1.000000e+000	6.994941e-002	-4.983826e-004	1.290331e-001	2.000000e+006
1.277148437500000e-001	1.000000e+000	6.967180e-002	-3.274498e-003	1.290330e-001	2.000000e+006
1.302260044642857e-001	1.000000e+000	6.896508e-002	-1.034167e-002	1.290332e-001	2.000000e+006
1.327371651785714e-001	1.000000e+000	6.826774e-002	-1.731506e-002	1.290332e-001	2.000000e+006
1.352483258928572e-001	1.000000e+000	6.757978e-002	-2.419467e-002	1.290330e-001	2.000000e+006
1.377594866071429e-001	1.000000e+000	6.690119e-002	-3.098049e-002	1.290327e-001	2.000000e+006
1.402706473214286e-001	1.000000e+000	6.623199e-002	-3.767253e-002	1.290323e-001	2.000000e+006
1.427818080357143e-001	1.000000e+000	6.557216e-002	-4.427078e-002	1.290317e-001	2.000000e+006
1.452929687500000e-001	1.000000e+000	6.492171e-002	-5.077526e-002	1.290310e-001	2.000000e+006
1.510128348214286e-001	1.000000e+000	6.347586e-002	-6.523362e-002	1.290310e-001	2.000000e+006
1.567327008928572e-001	1.000000e+000	6.207158e-002	-7.927637e-002	1.290310e-001	2.000000e+006
1.624525669642857e-001	1.000000e+000	6.070886e-002	-9.290352e-002	1.290311e-001	2.000000e+006
1.681724330357143e-001	1.000000e+000	5.938770e-002	-1.061151e-001	1.290312e-001	2.000000e+006
1.738922991071429e-001	1.000000e+000	5.810810e-002	-1.189110e-001	1.290312e-001	2.000000e+006
1.796121651785714e-001	1.000000e+000	5.687007e-002	-1.312913e-001	1.290313e-001	2.000000e+006
1.853320312500000e-001	1.000000e+000	5.567359e-002	-1.432560e-001	1.290314e-001	2.000000e+006
1.999804687500000e-001	1.000000e+000	5.276777e-002	-1.723140e-001	1.290315e-001	2.000000e+006
2.000000000000000e-001	1.000000e+000	5.276405e-002	-1.723513e-001	1.290315e-001	2.000000e+006
2.001171875000000e-001	1.000000e+000	5.274195e-002	-1.725723e-001	1.290315e-001	1.953828e+006
2.005859375000000e-001	1.000000e+000	5.265759e-002	-1.734162e-001	1.290316e-001	1.769141e+006
2.012109375000000e-001	1.000000e+000	5.255722e-002	-1.744205e-001	1.290316e-001	1.522891e+006
2.021875000000000e-001	1.000000e+000	5.243379e-002	-1.756561e-001	1.290317e-001	1.138125e+006
2.031640625000000e-001	1.000000e+000	5.239205e-002	-1.760767e-001	1.290319e-001	7.533594e+005
2.041406250000000e-001	1.000000e+000	5.316306e-002	-1.684121e-001	1.290351e-001	3.685938e+005
2.050000000000000e-001	1.000000e+000	5.521376e-002	-1.480209e-001	1.290433e-001	3.000000e+004
2.050976562500000e-001	1.000000e+000	5.581673e-002	-1.419916e-001	1.290438e-001	3.000000e+004
2.052929687500000e-001	1.000000e+000	5.702111e-002	-1.299480e-001	1.290451e-001	3.000000e+004
2.056835937500000e-001	1.000000e+000	5.942233e-002	-1.059357e-001	1.290491e-001	3.000000e+004
2.064648437500000e-001	1.000000e+000	6.420014e-002	-5.815738e-002	1.290597e-001	3.000000e+004
2.074414062500000e-001	1.000000e+000	7.013159e-002	1.157376e-003	1.290522e-001	3.000000e+004
2.084179687500000e-001	1.000000e+000	7.601490e-002	5.999072e-002	1.290246e-001	3.000000e+004
2.093945312500000e-001	1.000000e+000	8.184794e-002	1.183213e-001	1.290157e-001	3.000000e+004
2.103710937500000e-001	1.000000e+000	8.763112e-002	1.761535e-001	1.290220e-001	3.000000e+004
2.133007812500000e-001	1.000000e+000	1.046859e-001	3.467016e-001	1.290272e-001	3.000000e+004
2.152539062500000e-001	1.000000e+000	1.158142e-001	4.579853e-001	1.290284e-001	3.000000e+004
2.162304687500000e-001	9.998677e-001	1.213071e-001	5.129149e-001	1.290568e-001	3.000000e+004
2.172070312500000e-001	9.967576e-001	1.267531e-001	5.673751e-001	1.297208e-001	3.000000e+004
2.181835937500000e-001	9.877521e-001	1.321526e-001	6.213700e-001	1.316605e-001	3.000000e+004
2.191601562500000e-001	9.750265e-001	1.375059e-001	6.749034e-001	1.344439e-001	3.000000e+004
2.201367187500000e-001	9.609662e-001	1.428135e-001	7.279794e-001	1.375876e-001	3.000000e+004
2.211132812500000e-001	9.455824e-001	1.480757e-001	7.806018e-001	1.411115e-001	3.000000e+004
2.220898437500000e-001	9.288865e-001	1.532930e-001	8.327746e-001	1.450381e-001	3.000000e+004
2.230664062500000e-001	9.108899e-001	1.584657e-001	8.845015e-001	1.493931e-001	3.000000e+004
2.240429687500000e-001	8.916034e-001	1.635941e-001	9.357864e-001	1.542053e-001	3.000000e+004
2.250195312500000e-001	8.710382e-001	1.686788e-001	9.866331e-001	1.595075e-001	3.000000e+004
2.259960937500000e-001	8.492053e-001	1.737200e-001	1.037045e+000	1.653362e-001	3.000000e+004
2.269726562500000e-001	8.261154e-001	1.787181e-001	1.087027e+000	1.717322e-001	3.000000e+004
2.279492187500000e-001	8.017793e-001	1.836735e-001	1.136581e+000	1.787415e-001	3.000000e+004
2.289257812500000e-001	7.762076e-001	1.885866e-001	1.185712e+000	1.864149e-001	3.000000e+004
2.299023437500000e-001	7.494109e-001	1.934577e-001	1.234423e+000	1.948097e-001	3.000000e+004
2.308789062500000e-001	7.213998e-001	1.982871e-001	1.282717e+000	2.039892e-001	3.000000e+004
2.318554687500000e-001	6.921845e-001	2.030753e-001	1.330599e+000	2.140244e-001	3.000000e+004
2.328320312500000e-001	6.617754e-001	2.078226e-001	1.378072e+000	2.249944e-001	3.000000e+004
2.338085937500000e-001	6.301826e-001	2.125293e-001	1.425139e+000	2.369871e-001	3.000000e+004
2.347851562500000e-001	5.974164e-001	2.171958e-001	1.471804e+000	2.501009e-001	3.000000e+004
2.357617187500000e-001	5.634867e-001	2.218224e-001	1.518070e+000	2.644455e-001	3.000000e+004
2.367382812500000e-001	5.284034e-001	2.264095e-001	1.563941e+000	2.801435e-001	3.000000e+004
2.377148437500000e-001	4.921765e-001	2.309573e-001	1.609420e+000	2.973316e-001	3.000000e+004
2.386914062500000e-001	4.548158e-001	2.354663e-001	1.654510e+000	3.161628e-001	3.000000e+004
2.396679687500000e-001	4.163308e-001	2.399368e-001	1.699215e+000	3.368082e-001	3.000000e+004
2.406445312500000e-001	3.767313e-001	2.443691e-001	1.743538e+000	3.594596e-001	3.000000e+004
2.416210937500000e-001	3.360267e-001	2.487635e-001	1.787482e+000	3.843316e-001	3.000000e+004
2.425976562500000e-001	2.942266e-001	2.531204e-001	1.831050e+000	4.116650e-001	3.000000e+004
2.435742187500000e-001	2.513402e-001	2.574400e-001	1.874247e+000	4.417300e-001	3.000000e+004
2.445507812500000e-001	2.073770e-001	2.617227e-001	1.917073e+000	4.748302e-001	3.000000e+004
2.455273437500000e-001	1.623460e-001	2.659688e-001	1.959535e+000	5.113069e-001	3.000000e+004
2.465039062500000e-001	1.162565e-001	2.701786e-001	2.001633e+000	5.515442e-001	3.000000e+004
2.474804687500000e-001	6.911741e-002	2.743525e-001	2.043371e+000	5.959749e-001	3.000000e+004
2.484570312500000e-001	2.794225e-002	2.784907e-001	2.084754e+000	6.372606e-001	3.000000e+004
2.494335937500000e-001	1.177541e-003	2.826011e-001	2.125860e+000	6.653920e-001	3.000000e+004
2.495556640625000e-001	0.000000e+000	2.831122e-001	2.130972e+000	6.666619e-001	3.000000e+004
2.497998046875000e-001	0.000000e+000	2.841304e-001	2.141153e+000	6.666599e-001	3.000000e+004
2.562377553686709e-001	0.000000e+000	3.100450e-001	2.400300e+000	6.666605e-001	3.000000e+004
2.626757060498418e-001	0.000000e+000	3.347102e-001	2.646954e+000	6.666610e-001	3.000000e+004
2.691136567310127e-001	0.000000e+000	3.581261e-001	2.881114e+000	6.666614e-001	3.000000e+004
2.755516074121835e-001	0.000000e+000	3.802927e-001	3.102780e+000	6.666618e-001	3.000000e+004
2.819895580933545e-001	0.000000e+000	4.012099e-001	3.311953e+000	6.666621e-001	3.000000e+004
2.884275087745253e-001	0.000000e+000	4.208778e-001	3.508633e+000	6.666623e-001	3.000000e+004
2.948654594556962e-001	0.000000e+000	4.392963e-001	3.692819e+000	6.666624e-001	3.000000e+004
2.950000000000000e-001	0.000000e+000	4.396744e-001	3.696600e+000	6.666624e-001	3.000000e+004
2.950976562500000e-001	0.000000e+000	4.399478e-001	3.699335e+000	6.666624e-001	3.000000e+004
2.952929687500000e-001	0.000000e+000	4.404939e-001	3.704796e+000	6.666624e-001	3.000000e+004
3.000000000000000e-001	0.000000e+000	4.533853e-001	3.833709e+000	6.666625e-001	3.000000e+004
3.000976562500000e-001	0.000000e+000	4.533449e-001	3.833361e+000	6.666636e-001	6.847656e+004
3.002929687500000e-001	0.000000e+000	4.531493e-001	3.831450e+000	6.666646e-001	1.454297e+005
3.006835937500000e-001	0.000000e+000	4.524978e-001	3.824954e+000	6.666650e-001	2.993359e+005
3.014648437500000e-001	0.000000e+000	4.508894e-001	3.808878e+000	6.666652e-001	6.071484e+005
3.024414062500000e-001	0.000000e+000	4.487167e-001	3.787155e+000	6.666653e-001	9.919141e+005
3.034179687500000e-001	0.000000e+000	4.464730e-001	3.764719e+000	6.666653e-001	1.376680e+006
3.043945312500000e-001	0.000000e+000	4.442029e-001	3.742020e+000	6.666653e-001	1.761445e+006
3.050000000000000e-001	0.000000e+000	4.427899e-001	3.727891e+000	6.666654e-001	2.000000e+006
3.050976562500000e-001	0.000000e+000	4.425618e-001	3.725610e+000	6.666653e-001	2.000000e+006
3.052929687500000e-001	0.000000e+000	4.421060e-001	3.721051e+000	6.666653e-001	2.000000e+006
3.116796875000000e-001	0.000000e+000	4.275039e-001	3.575031e+000	6.666653e-001	2.000000e+006
3.180664062500000e-001	0.000000e+000	4.133652e-001	3.433645e+000	6.666654e-001	2.000000e+006
3.244531250000000e-001	0.000000e+000	3.996900e-001	3.296893e+000	6.666654e-001	2.000000e+006
3.308398437500000e-001	0.000000e+000	3.864782e-001	3.164776e+000	6.666654e-001	2.000000e+006
3.372265625000000e-001	0.000000e+000	3.737298e-001	3.037293e+000	6.666654e-001	2.000000e+006
3.436132812500000e-001	0.000000e+000	3.614449e-001	2.914444e+000	6.666654e-001	2.000000e+006
3.500000000000000e-001	0.000000e+000	3.496235e-001	2.796230e+000	6.666654e-001	2.000000e+006
3.550000000000000e-001	0.000000e+000	3.406253e-001	2.706249e+000	6.666654e-001	2.000000e+006
3.633007812500000e-001	0.000000e+000	3.262910e-001	2.562906e+000	6.666654e-001	2.000000e+006
3.716015625000000e-001	0.000000e+000	3.125316e-001	2.425313e+000	6.666654e-001	2.000000e+006
3.799023437500000e-001	0.000000e+000	2.993470e-001	2.293468e+000	6.666654e-001	2.000000e+006
3.882031250000000e-001	0.000000e+000	2.867374e-001	2.167372e+000	6.666654e-001	2.000000e+006
3.965039062500000e-001	0.000000e+000	2.747026e-001	2.047025e+000	6.666655e-001	2.000000e+006
4.048046875000000e-001	0.000000e+000	2.632428e-001	1.932427e+000	6.666655e-001	2.000000e+006
4.131054687500000e-001	0.000000e+000	2.523578e-001	1.823577e+000	6.666655e-001	2.000000e+006
4.140820312500000e-001	0.000000e+000	2.511022e-001	1.811022e+000	6.666655e-001	2.000000e+006
4.150585937500000e-001	0.000000e+000	2.498535e-001	1.798534e+000	6.666655e-001	2.000000e+006
4.160351562500000e-001	0.000000e+000	2.486114e-001	1.786113e+000	6.666655e-001	2.000000e+006
4.305440848214286e-001	0.000000e+000	2.311538e-001	1.611539e+000	6.666655e-001	2.000000e+006
4.450530133928571e-001	0.000000e+000	2.148161e-001	1.448162e+000	6.666656e-001	2.000000e+006
4.595619419642857e-001	0.000000e+000	1.995980e-001	1.295982e+000	6.666656e-001	2.000000e+006
4.740708705357143e-001	0.000000e+000	1.854997e-001	1.154999e+000	6.666657e-001	2.000000e+006
4.885797991071429e-001	0.000000e+000	1.725211e-001	1.025214e+000	6.666658e-001	2.000000e+006
5.030887276785714e-001	0.000000e+000	1.606622e-001	9.066255e-001	6.666658e-001	2.000000e+006
5.175976562500000e-001	0.000000e+000	1.499231e-001	7.992346e-001	6.666659e-001	2.000000e+006
5.301534598214286e-001	0.000000e+000	1.412128e-001	7.121325e-001	6.666660e-001	2.000000e+006
5.427092633928572e-001	0.000000e+000	1.329995e-001	6.299995e-001	6.666661e-001	2.000000e+006
5.552650669642857e-001	0.000000e+000	1.252830e-001	5.528354e-001	6.666662e-001	2.000000e+006
5.678208705357143e-001	0.000000e+000	1.180635e-001	4.806402e-001	6.666664e-001	2.000000e+006
5.803766741071429e-001	0.000000e+000	1.113408e-001	4.134141e-001	6.666667e-001	2.000000e+006
5.929324776785714e-001	0.000000e+000	1.051151e-001	3.511569e-001	6.666669e-001	2.000000e+006
6.054882812500000e-001	0.000000e+000	9.938625e-002	2.938687e-001	6.666672e-001	2.000000e+006
6.145563616071429e-001	0.000000e+000	9.545337e-002	2.545401e-001	6.666670e-001	2.000000e+006
6.236244419642857e-001	0.000000e+000	9.169091e-002	2.169157e-001	6.666673e-001	2.000000e+006
6.326925223214286e-001	0.000000e+000	8.809888e-002	1.809955e-001	6.666681e-001	2.000000e+006
6.417606026785714e-001	0.000000e+000	8.467726e-002	1.467795e-001	6.666694e-001	2.000000e+006
6.508286830357143e-001	0.000000e+000	8.142607e-002	1.142677e-001	6.666711e-001	2.000000e+006
6.598967633928572e-001	0.000000e+000	7.834529e-002	8.346006e-002	6.666734e-001	2.000000e+006
6.689648437500000e-001	0.000000e+000	7.543494e-002	5.435668e-002	6.666762e-001	2.000000e+006
6.713364955357143e-001	0.000000e+000	7.469247e-002	4.693207e-002	6.666766e-001	2.000000e+006
6.737081473214286e-001	0.000000e+000	7.395934e-002	3.960073e-002	6.666769e-001	2.000000e+006
6.760797991071429e-001	0.000000e+000	7.323552e-002	3.236264e-002	6.666771e-001	2.000000e+006
6.784514508928571e-001	0.000000e+000	7.252104e-002	2.521782e-002	6.666772e-001	2.000000e+006
6.808231026785714e-001	0.000000e+000	7.181588e-002	1.816625e-002	6.666773e-001	2.000000e+006
6.831947544642857e-001	0.000000e+000	7.112005e-002	1.120795e-002	6.666773e-001	2.000000e+006
6.855664062500000e-001	0.000000e+000	7.043354e-002	4.342908e-003	6.666772e-001	2.000000e+006
6.865429687500000e-001	0.000000e+000	7.015333e-002	1.540837e-003	6.666774e-001	2.000000e+006
6.875195312500000e-001	0.000000e+000	6.987462e-002	-1.246210e-003	6.666772e-001	2.000000e+006
6.884960937500000e-001	0.000000e+000	6.959742e-002	-4.018317e-003	6.666770e-001	2.000000e+006
6.914257812500000e-001	0.000000e+000	6.877466e-002	-1.224578e-002	6.666766e-001	2.000000e+006
6.932393973214286e-001	0.000000e+000	6.827207e-002	-1.727166e-002	6.666765e-001	2.000000e+006
6.950530133928571e-001	0.000000e+000	6.777436e-002	-2.224883e-002	6.666763e-001	2.000000e+006
6.968666294642857e-001	0.000000e+000	6.728151e-002	-2.717729e-002	6.666762e-001	2.000000e+006
6.986802455357143e-001	0.000000e+000	6.679353e-002	-3.205704e-002	6.666761e-001	2.000000e+006
7.004938616071429e-001	0.000000e+000	6.631043e-002	-3.688807e-002	6.666760e-001	2.000000e+006
7.023074776785714e-001	0.000000e+000	6.583219e-002	-4.167040e-002	6.666759e-001	2.000000e+006
7.041210937500000e-001	0.000000e+000	6.535883e-002	-4.640402e-002	6.666758e-001	2.000000e+006
